* T-Spice 6.02 Simulation	Sun Dec 26 12:22:34 2021	D:\Materials\college\final year\Final-year-projects\Digital IC\labs\lab1\Module0.sp  (CAZM)
* Command line: tspice -o D:\Materials\college\final year\Final-year-projects\Digital IC\labs\lab1\Module0_0.out D:\Materials\college\final year\Final-year-projects\Digital IC\labs\lab1\Module0.sp 
* T-Spice Win32 6.02.20000302.11:47:10
* Operating System: Windows NT/95

*SEDIT: probesdbfile="D:\Materials\college\final year\Final-year-projects\Digital IC\lab1\inverter_schematic.sdb"
*SEDIT: probetopmodule="Module0"
*SEDIT: Alter blocks = 0

* Device and node counts:
*             MOSFETs - 2                 MOSFET geometries - 2       
*                BJTs - 0                             JFETs - 0       
*             MESFETs - 0                            Diodes - 0       
*          Capacitors - 1                         Resistors - 0       
*           Inductors - 0                  Mutual inductors - 0       
*  Transmission lines - 0        Coupled transmission lines - 0       
*     Voltage sources - 2                   Current sources - 0       
*                VCVS - 0                              VCCS - 0       
*                CCVS - 0                              CCCS - 0       
*    V-control switch - 0                  I-control switch - 0       
*       Macro devices - 0        Functional model instances - 0       
*         Subcircuits - 0              Subcircuit instances - 0       
*   Independent nodes - 1                    Boundary nodes - 3       
*         Total nodes - 4       


*SEDIT: Alter=0
*SEDIT: Analysis types DCOP 1 ACMODEL 1 AC 0 TRANSIENT 1 TRANSFER 0 NOISE 0 

* BEGIN NON-GRAPHICAL DATA

DC ANALYSIS
v(Out) =   5.0000e+000
v(In) =   0.0000e+000
v(Vdd) =   5.0000e+000
i(Vsupply) =  -5.0007e-014
i(Vpulse) =  -0.0000e+000

* END NON-GRAPHICAL DATA

* BEGIN NON-GRAPHICAL DATA

AC SMALL-SIGNAL MODELS
             M2           M3          
MODEL        nmos         pmos        
TYPE         NMOS         PMOS        
ID            7.06e-018   -5.00e-014  
VGS           0.00e+000   -5.00e+000  
VDS           5.00e+000   -1.21e-010  
VBS           0.00e+000    0.00e+000  
VTH           0.00e+000   -0.00e+000  
VDSAT         0.00e+000    0.00e+000  
RS            0.00e+000    0.00e+000  
RD            0.00e+000    0.00e+000  
GM            2.19e-015   -1.00e-013  
GDS           3.37e-019    4.15e-004  
GMB          -1.03e-017    3.59e-015  
GBD           1.00e-014    1.00e-014  
GBS           1.00e-014    1.00e-014  
CGS          -8.16e-015    1.70e-014  
CGD           6.01e-015    3.98e-014  
CGB           4.24e-014   -3.06e-015  
CBD           9.43e-015    2.69e-014  
CBS           3.32e-014    2.66e-014  

* END NON-GRAPHICAL DATA

*WEDIT: .tran   1e-009   6e-007
TRANSIENT ANALYSIS
Time<s>        v(In,GND)<V>  v(Out,GND)<V>
   0.0000e+000  0.0000e+000  5.0000e+000
   9.4871e-012  4.7436e-002  5.0015e+000
   8.7618e-011  4.3809e-001  5.0138e+000
   2.3859e-010  1.1930e+000  5.0358e+000
   3.5178e-010  1.7589e+000  5.0434e+000
   4.6255e-010  2.3128e+000  5.0295e+000
   5.8025e-010  2.9013e+000  4.9787e+000
   6.9760e-010  3.4880e+000  4.8808e+000
   8.3403e-010  4.1702e+000  4.6896e+000
   1.0000e-009  5.0000e+000  4.3359e+000
   1.0715e-009  5.0000e+000  4.1489e+000
   1.2974e-009  5.0000e+000  3.5657e+000
   1.5088e-009  5.0000e+000  3.0327e+000
   1.8364e-009  5.0000e+000  2.2416e+000
   2.0684e-009  5.0000e+000  1.7267e+000
   2.2721e-009  5.0000e+000  1.3251e+000
   2.4889e-009  5.0000e+000  9.6565e-001
   2.6822e-009  5.0000e+000  7.0969e-001
   2.8705e-009  5.0000e+000  5.1607e-001
   3.1342e-009  5.0000e+000  3.2292e-001
   3.3984e-009  5.0000e+000  1.9833e-001
   3.6346e-009  5.0000e+000  1.2689e-001
   3.8711e-009  5.0000e+000  8.0311e-002
   4.1605e-009  5.0000e+000  4.5326e-002
   4.5889e-009  5.0000e+000  1.8912e-002
   4.9994e-009  5.0000e+000  7.7066e-003
   5.4043e-009  5.0000e+000  2.8003e-003
   5.8125e-009  5.0000e+000  7.4876e-004
   6.4809e-009  5.0000e+000 -2.9778e-004
   7.3571e-009  5.0000e+000 -1.0956e-004
   8.3571e-009  5.0000e+000 -3.6997e-005
   9.3571e-009  5.0000e+000 -1.2493e-005
   1.0357e-008  5.0000e+000 -4.2186e-006
   1.1357e-008  5.0000e+000 -1.4245e-006
   1.2357e-008  5.0000e+000 -4.8103e-007
   1.3357e-008  5.0000e+000 -1.6242e-007
   1.4357e-008  5.0000e+000 -5.4833e-008
   1.5357e-008  5.0000e+000  5.2754e-008
   1.6357e-008  5.0000e+000  1.6034e-007
   1.7357e-008  5.0000e+000  5.4183e-008
   1.8357e-008  5.0000e+000 -5.1975e-008
   1.9357e-008  5.0000e+000 -1.5813e-007
   2.0357e-008  5.0000e+000 -5.3388e-008
   2.1357e-008  5.0000e+000  5.1356e-008
   2.2357e-008  5.0000e+000  1.5610e-007
   2.3357e-008  5.0000e+000  5.2751e-008
   2.4357e-008  5.0000e+000 -5.0600e-008
   2.5357e-008  5.0000e+000 -1.5395e-007
   2.6357e-008  5.0000e+000 -5.1975e-008
   2.7357e-008  5.0000e+000  4.9999e-008
   2.8357e-008  5.0000e+000  1.5197e-007
   2.9357e-008  5.0000e+000  5.1356e-008
   3.0357e-008  5.0000e+000 -4.9261e-008
   3.1357e-008  5.0000e+000 -1.4988e-007
   3.2357e-008  5.0000e+000 -5.0600e-008
   3.3357e-008  5.0000e+000  4.8678e-008
   3.4357e-008  5.0000e+000  1.4796e-007
   3.5357e-008  5.0000e+000  4.9999e-008
   3.6357e-008  5.0000e+000 -4.7958e-008
   3.7357e-008  5.0000e+000 -1.4591e-007
   3.8357e-008  5.0000e+000 -4.9262e-008
   3.9357e-008  5.0000e+000  4.7391e-008
   4.0357e-008  5.0000e+000  1.4404e-007
   4.1357e-008  5.0000e+000  4.8677e-008
   4.2357e-008  5.0000e+000 -4.6690e-008
   4.3357e-008  5.0000e+000 -1.4206e-007
   4.4357e-008  5.0000e+000 -4.7959e-008
   4.5357e-008  5.0000e+000  4.6139e-008
   4.6357e-008  5.0000e+000  1.4024e-007
   4.7357e-008  5.0000e+000  4.7391e-008
   4.8357e-008  5.0000e+000 -4.5455e-008
   4.9357e-008  5.0000e+000 -1.3830e-007
   5.0357e-008  5.0000e+000 -4.6690e-008
   5.1357e-008  5.0000e+000  4.4920e-008
   5.2357e-008  5.0000e+000  1.3653e-007
   5.3357e-008  5.0000e+000  4.6139e-008
   5.4357e-008  5.0000e+000 -4.4253e-008
   5.5357e-008  5.0000e+000 -1.3464e-007
   5.6357e-008  5.0000e+000 -4.5455e-008
   5.7357e-008  5.0000e+000  4.3734e-008
   5.8357e-008  5.0000e+000  1.3292e-007
   5.9357e-008  5.0000e+000  4.4920e-008
   6.0357e-008  5.0000e+000 -4.3083e-008
   6.1357e-008  5.0000e+000 -1.3109e-007
   6.2357e-008  5.0000e+000 -4.4253e-008
   6.3357e-008  5.0000e+000  4.2579e-008
   6.4357e-008  5.0000e+000  1.2941e-007
   6.5357e-008  5.0000e+000  4.3734e-008
   6.6357e-008  5.0000e+000 -4.1944e-008
   6.7357e-008  5.0000e+000 -1.2762e-007
   6.8357e-008  5.0000e+000 -4.3083e-008
   6.9357e-008  5.0000e+000  4.1455e-008
   7.0357e-008  5.0000e+000  1.2599e-007
   7.1357e-008  5.0000e+000  4.2579e-008
   7.2357e-008  5.0000e+000 -4.0835e-008
   7.3357e-008  5.0000e+000 -1.2425e-007
   7.4357e-008  5.0000e+000 -4.1944e-008
   7.5357e-008  5.0000e+000  4.0360e-008
   7.6357e-008  5.0000e+000  1.2266e-007
   7.7357e-008  5.0000e+000  4.1454e-008
   7.8357e-008  5.0000e+000 -3.9756e-008
   7.9357e-008  5.0000e+000 -1.2097e-007
   8.0357e-008  5.0000e+000 -4.0836e-008
   8.1357e-008  5.0000e+000  3.9295e-008
   8.2357e-008  5.0000e+000  1.1942e-007
   8.3357e-008  5.0000e+000  4.0360e-008
   8.4357e-008  5.0000e+000 -3.8705e-008
   8.5357e-008  5.0000e+000 -1.1777e-007
   8.6357e-008  5.0000e+000 -1.9684e-007
   8.7357e-008  5.0000e+000 -6.6459e-008
   8.8357e-008  5.0000e+000  6.3917e-008
   8.9357e-008  5.0000e+000  2.1607e-008
   9.0357e-008  5.0000e+000 -2.0703e-008
   9.1357e-008  5.0000e+000 -6.3013e-008
   9.2357e-008  5.0000e+000 -1.0532e-007
   9.3357e-008  5.0000e+000 -1.4763e-007
   9.4357e-008  5.0000e+000 -1.8994e-007
   9.5357e-008  5.0000e+000 -6.4131e-008
   9.6357e-008  5.0000e+000  6.1679e-008
   9.7357e-008  5.0000e+000  2.0851e-008
   9.8357e-008  5.0000e+000 -1.9977e-008
   9.9357e-008  5.0000e+000 -6.0806e-008
  1.00357e-007  5.0000e+000 -1.0163e-007
  1.01000e-007  5.0000e+000 -1.2788e-007
 1.0100842e-007  4.9579e+000 -1.2460e-003
  1.01136e-007  4.3182e+000 -1.8318e-002
  1.01383e-007  3.0841e+000 -4.4392e-002
  1.01586e-007  2.0671e+000 -4.1785e-002
  1.01770e-007  1.1473e+000 -6.6479e-004
  1.01984e-007  7.5356e-002  1.2826e-001
 1.020000e-007  0.0000e+000  1.4115e-001
  1.02290e-007  0.0000e+000  4.2084e-001
  1.02914e-007  0.0000e+000  1.0141e+000
  1.03484e-007  0.0000e+000  1.5465e+000
  1.04478e-007  0.0000e+000  2.4342e+000
  1.05146e-007  0.0000e+000  2.9786e+000
  1.05760e-007  0.0000e+000  3.4196e+000
  1.06259e-007  0.0000e+000  3.7271e+000
  1.06746e-007  0.0000e+000  3.9819e+000
  1.07297e-007  0.0000e+000  4.2180e+000
  1.08039e-007  0.0000e+000  4.4605e+000
  1.08563e-007  0.0000e+000  4.5850e+000
  1.09090e-007  0.0000e+000  4.6726e+000
  1.09401e-007  0.0000e+000  4.7170e+000
  1.09678e-007  0.0000e+000  4.7534e+000
  1.09973e-007  0.0000e+000  4.7867e+000
  1.10294e-007  0.0000e+000  4.8153e+000
  1.10618e-007  0.0000e+000  4.8376e+000
  1.10993e-007  0.0000e+000  4.8587e+000
  1.11422e-007  0.0000e+000  4.8799e+000
  1.11848e-007  0.0000e+000  4.8985e+000
  1.12514e-007  0.0000e+000  4.9226e+000
  1.13152e-007  0.0000e+000  4.9400e+000
  1.13853e-007  0.0000e+000  4.9543e+000
  1.14853e-007  0.0000e+000  4.9687e+000
  1.15853e-007  0.0000e+000  4.9786e+000
  1.16853e-007  0.0000e+000  4.9856e+000
  1.17853e-007  0.0000e+000  4.9904e+000
  1.18853e-007  0.0000e+000  4.9936e+000
  1.19853e-007  0.0000e+000  4.9956e+000
  1.20853e-007  0.0000e+000  4.9971e+000
  1.21853e-007  0.0000e+000  4.9981e+000
  1.22853e-007  0.0000e+000  4.9987e+000
  1.23853e-007  0.0000e+000  4.9992e+000
  1.24853e-007  0.0000e+000  4.9994e+000
  1.25853e-007  0.0000e+000  4.9996e+000
  1.26853e-007  0.0000e+000  4.9998e+000
  1.27853e-007  0.0000e+000  4.9998e+000
  1.28853e-007  0.0000e+000  4.9999e+000
  1.29853e-007  0.0000e+000  4.9999e+000
  1.30853e-007  0.0000e+000  4.9999e+000
  1.31853e-007  0.0000e+000  5.0000e+000
  1.32853e-007  0.0000e+000  5.0000e+000
  1.33853e-007  0.0000e+000  5.0000e+000
  1.34853e-007  0.0000e+000  5.0000e+000
  1.35853e-007  0.0000e+000  5.0000e+000
  1.36853e-007  0.0000e+000  5.0000e+000
  1.37853e-007  0.0000e+000  5.0000e+000
  1.38853e-007  0.0000e+000  5.0000e+000
  1.39853e-007  0.0000e+000  5.0000e+000
  1.40853e-007  0.0000e+000  5.0000e+000
  1.41853e-007  0.0000e+000  5.0000e+000
  1.42853e-007  0.0000e+000  5.0000e+000
  1.43853e-007  0.0000e+000  5.0000e+000
  1.44853e-007  0.0000e+000  5.0000e+000
  1.45853e-007  0.0000e+000  5.0000e+000
  1.46853e-007  0.0000e+000  5.0000e+000
  1.47853e-007  0.0000e+000  5.0000e+000
  1.48853e-007  0.0000e+000  5.0000e+000
  1.49853e-007  0.0000e+000  5.0000e+000
  1.50853e-007  0.0000e+000  5.0000e+000
  1.51853e-007  0.0000e+000  5.0000e+000
  1.52853e-007  0.0000e+000  5.0000e+000
  1.53853e-007  0.0000e+000  5.0000e+000
  1.54853e-007  0.0000e+000  5.0000e+000
  1.55853e-007  0.0000e+000  5.0000e+000
  1.56853e-007  0.0000e+000  5.0000e+000
  1.57853e-007  0.0000e+000  5.0000e+000
  1.58853e-007  0.0000e+000  5.0000e+000
  1.59853e-007  0.0000e+000  5.0000e+000
  1.60853e-007  0.0000e+000  5.0000e+000
  1.61853e-007  0.0000e+000  5.0000e+000
  1.62853e-007  0.0000e+000  5.0000e+000
  1.63853e-007  0.0000e+000  5.0000e+000
  1.64853e-007  0.0000e+000  5.0000e+000
  1.65853e-007  0.0000e+000  5.0000e+000
  1.66853e-007  0.0000e+000  5.0000e+000
  1.67853e-007  0.0000e+000  5.0000e+000
  1.68853e-007  0.0000e+000  5.0000e+000
  1.69853e-007  0.0000e+000  5.0000e+000
  1.70853e-007  0.0000e+000  5.0000e+000
  1.71853e-007  0.0000e+000  5.0000e+000
  1.72853e-007  0.0000e+000  5.0000e+000
  1.73853e-007  0.0000e+000  5.0000e+000
  1.74853e-007  0.0000e+000  5.0000e+000
  1.75853e-007  0.0000e+000  5.0000e+000
  1.76853e-007  0.0000e+000  5.0000e+000
  1.77853e-007  0.0000e+000  5.0000e+000
  1.78853e-007  0.0000e+000  5.0000e+000
  1.79853e-007  0.0000e+000  5.0000e+000
  1.80853e-007  0.0000e+000  5.0000e+000
  1.81853e-007  0.0000e+000  5.0000e+000
  1.82853e-007  0.0000e+000  5.0000e+000
  1.83853e-007  0.0000e+000  5.0000e+000
  1.84853e-007  0.0000e+000  5.0000e+000
  1.85853e-007  0.0000e+000  5.0000e+000
  1.86853e-007  0.0000e+000  5.0000e+000
  1.87853e-007  0.0000e+000  5.0000e+000
  1.88853e-007  0.0000e+000  5.0000e+000
  1.89853e-007  0.0000e+000  5.0000e+000
  1.90853e-007  0.0000e+000  5.0000e+000
  1.91853e-007  0.0000e+000  5.0000e+000
  1.92853e-007  0.0000e+000  5.0000e+000
  1.93853e-007  0.0000e+000  5.0000e+000
  1.94853e-007  0.0000e+000  5.0000e+000
  1.95853e-007  0.0000e+000  5.0000e+000
  1.96853e-007  0.0000e+000  5.0000e+000
  1.97853e-007  0.0000e+000  5.0000e+000
  1.98853e-007  0.0000e+000  5.0000e+000
  1.99853e-007  0.0000e+000  5.0000e+000
 2.000000e-007  0.0000e+000  5.0000e+000
 2.0000327e-007  1.6384e-002  5.0005e+000
 2.000818e-007  4.0906e-001  5.0129e+000
 2.002343e-007  1.1717e+000  5.0353e+000
 2.003485e-007  1.7429e+000  5.0435e+000
 2.004598e-007  2.2994e+000  5.0302e+000
 2.005780e-007  2.8905e+000  4.9802e+000
 2.006950e-007  3.4753e+000  4.8836e+000
 2.008292e-007  4.1463e+000  4.6981e+000
 2.010000e-007  5.0000e+000  4.3362e+000
 2.010697e-007  5.0000e+000  4.1539e+000
  2.01295e-007  5.0000e+000  3.5703e+000
  2.01507e-007  5.0000e+000  3.0362e+000
  2.01836e-007  5.0000e+000  2.2414e+000
  2.02068e-007  5.0000e+000  1.7263e+000
  2.02272e-007  5.0000e+000  1.3251e+000
  2.02490e-007  5.0000e+000  9.6396e-001
 2.026839e-007  5.0000e+000  7.0786e-001
 2.028722e-007  5.0000e+000  5.1459e-001
  2.03135e-007  5.0000e+000  3.2202e-001
  2.03400e-007  5.0000e+000  1.9764e-001
  2.03636e-007  5.0000e+000  1.2650e-001
  2.03872e-007  5.0000e+000  8.0104e-002
  2.04162e-007  5.0000e+000  4.5160e-002
  2.04596e-007  5.0000e+000  1.8605e-002
  2.05008e-007  5.0000e+000  7.5265e-003
  2.05413e-007  5.0000e+000  2.7099e-003
  2.05820e-007  5.0000e+000  7.1436e-004
  2.06487e-007  5.0000e+000 -2.9928e-004
  2.07367e-007  5.0000e+000 -1.0983e-004
  2.08367e-007  5.0000e+000 -3.7087e-005
  2.09367e-007  5.0000e+000 -1.2523e-005
  2.10367e-007  5.0000e+000 -4.2289e-006
  2.11367e-007  5.0000e+000 -1.4280e-006
  2.12367e-007  5.0000e+000 -4.8220e-007
  2.13367e-007  5.0000e+000 -1.6281e-007
  2.14367e-007  5.0000e+000 -5.4966e-008
  2.15367e-007  5.0000e+000  5.2882e-008
  2.16367e-007  5.0000e+000  1.6073e-007
  2.17367e-007  5.0000e+000  5.4315e-008
  2.18367e-007  5.0000e+000 -5.2101e-008
  2.19367e-007  5.0000e+000 -1.5852e-007
  2.20367e-007  5.0000e+000 -5.3518e-008
  2.21367e-007  5.0000e+000  5.1481e-008
  2.22367e-007  5.0000e+000  1.5648e-007
  2.23367e-007  5.0000e+000  5.2879e-008
  2.24367e-007  5.0000e+000 -5.0723e-008
  2.25367e-007  5.0000e+000 -1.5432e-007
  2.26367e-007  5.0000e+000 -5.2102e-008
  2.27367e-007  5.0000e+000  5.0121e-008
  2.28367e-007  5.0000e+000  1.5234e-007
  2.29367e-007  5.0000e+000  5.1481e-008
  2.30367e-007  5.0000e+000 -4.9381e-008
  2.31367e-007  5.0000e+000 -1.5024e-007
  2.32367e-007  5.0000e+000 -5.0724e-008
  2.33367e-007  5.0000e+000  4.8796e-008
  2.34367e-007  5.0000e+000  1.4832e-007
  2.35367e-007  5.0000e+000  5.0120e-008
  2.36367e-007  5.0000e+000 -4.8075e-008
  2.37367e-007  5.0000e+000 -1.4627e-007
  2.38367e-007  5.0000e+000 -4.9382e-008
  2.39367e-007  5.0000e+000  4.7507e-008
  2.40367e-007  5.0000e+000  1.4439e-007
  2.41367e-007  5.0000e+000  4.8796e-008
  2.42367e-007  5.0000e+000 -4.6803e-008
  2.43367e-007  5.0000e+000 -1.4240e-007
  2.44367e-007  5.0000e+000 -4.8075e-008
  2.45367e-007  5.0000e+000  4.6251e-008
  2.46367e-007  5.0000e+000  1.4058e-007
  2.47367e-007  5.0000e+000  4.7506e-008
  2.48367e-007  5.0000e+000 -4.5565e-008
  2.49367e-007  5.0000e+000 -1.3864e-007
  2.50367e-007  5.0000e+000 -4.6804e-008
  2.51367e-007  5.0000e+000  4.5030e-008
  2.52367e-007  5.0000e+000  1.3686e-007
  2.53367e-007  5.0000e+000  4.6251e-008
  2.54367e-007  5.0000e+000 -4.4361e-008
  2.55367e-007  5.0000e+000 -1.3497e-007
  2.56367e-007  5.0000e+000 -4.5566e-008
  2.57367e-007  5.0000e+000  4.3840e-008
  2.58367e-007  5.0000e+000  1.3325e-007
  2.59367e-007  5.0000e+000  4.5029e-008
  2.60367e-007  5.0000e+000 -4.3188e-008
  2.61367e-007  5.0000e+000 -1.3140e-007
  2.62367e-007  5.0000e+000 -4.4361e-008
  2.63367e-007  5.0000e+000  4.2682e-008
  2.64367e-007  5.0000e+000  1.2973e-007
  2.65367e-007  5.0000e+000  4.3840e-008
  2.66367e-007  5.0000e+000 -4.2046e-008
  2.67367e-007  5.0000e+000 -1.2793e-007
  2.68367e-007  5.0000e+000 -4.3188e-008
  2.69367e-007  5.0000e+000  4.1555e-008
  2.70367e-007  5.0000e+000  1.2630e-007
  2.71367e-007  5.0000e+000  4.2682e-008
  2.72367e-007  5.0000e+000 -4.0934e-008
  2.73367e-007  5.0000e+000 -1.2455e-007
  2.74367e-007  5.0000e+000 -4.2046e-008
  2.75367e-007  5.0000e+000  4.0458e-008
  2.76367e-007  5.0000e+000  1.2296e-007
  2.77367e-007  5.0000e+000  4.1555e-008
  2.78367e-007  5.0000e+000 -3.9852e-008
  2.79367e-007  5.0000e+000 -1.2126e-007
  2.80367e-007  5.0000e+000 -4.0935e-008
  2.81367e-007  5.0000e+000  3.9390e-008
  2.82367e-007  5.0000e+000  1.1972e-007
  2.83367e-007  5.0000e+000  4.0458e-008
  2.84367e-007  5.0000e+000 -3.8799e-008
  2.85367e-007  5.0000e+000 -1.1806e-007
  2.86367e-007  5.0000e+000 -1.9731e-007
  2.87367e-007  5.0000e+000 -6.6621e-008
  2.88367e-007  5.0000e+000  6.4072e-008
  2.89367e-007  5.0000e+000  2.1659e-008
  2.90367e-007  5.0000e+000 -2.0753e-008
  2.91367e-007  5.0000e+000 -6.3166e-008
  2.92367e-007  5.0000e+000 -1.0558e-007
  2.93367e-007  5.0000e+000 -1.4799e-007
  2.94367e-007  5.0000e+000 -1.9040e-007
  2.95367e-007  5.0000e+000 -6.4287e-008
  2.96367e-007  5.0000e+000  6.1829e-008
  2.97367e-007  5.0000e+000  2.0902e-008
  2.98367e-007  5.0000e+000 -2.0026e-008
  2.99367e-007  5.0000e+000 -6.0954e-008
  3.00367e-007  5.0000e+000 -1.0188e-007
  3.01000e-007  5.0000e+000 -1.2776e-007
 3.0100842e-007  4.9579e+000 -1.2460e-003
 3.011363e-007  4.3182e+000 -1.8318e-002
 3.013831e-007  3.0841e+000 -4.4392e-002
 3.015865e-007  2.0671e+000 -4.1785e-002
 3.017705e-007  1.1473e+000 -6.6479e-004
 3.019849e-007  7.5356e-002  1.2826e-001
 3.0200000e-007  0.0000e+000  1.4115e-001
 3.022905e-007  0.0000e+000  4.2084e-001
  3.02914e-007  0.0000e+000  1.0141e+000
  3.03484e-007  0.0000e+000  1.5465e+000
  3.04478e-007  0.0000e+000  2.4342e+000
  3.05146e-007  0.0000e+000  2.9786e+000
  3.05760e-007  0.0000e+000  3.4196e+000
  3.06259e-007  0.0000e+000  3.7271e+000
  3.06746e-007  0.0000e+000  3.9819e+000
  3.07297e-007  0.0000e+000  4.2180e+000
  3.08039e-007  0.0000e+000  4.4605e+000
  3.08563e-007  0.0000e+000  4.5850e+000
  3.09090e-007  0.0000e+000  4.6726e+000
  3.09401e-007  0.0000e+000  4.7170e+000
 3.096786e-007  0.0000e+000  4.7534e+000
 3.099736e-007  0.0000e+000  4.7867e+000
  3.10294e-007  0.0000e+000  4.8153e+000
  3.10618e-007  0.0000e+000  4.8376e+000
  3.10993e-007  0.0000e+000  4.8587e+000
  3.11422e-007  0.0000e+000  4.8799e+000
  3.11848e-007  0.0000e+000  4.8985e+000
  3.12514e-007  0.0000e+000  4.9226e+000
  3.13152e-007  0.0000e+000  4.9400e+000
  3.13853e-007  0.0000e+000  4.9543e+000
  3.14853e-007  0.0000e+000  4.9687e+000
  3.15853e-007  0.0000e+000  4.9786e+000
  3.16853e-007  0.0000e+000  4.9856e+000
  3.17853e-007  0.0000e+000  4.9904e+000
  3.18853e-007  0.0000e+000  4.9936e+000
  3.19853e-007  0.0000e+000  4.9956e+000
  3.20853e-007  0.0000e+000  4.9971e+000
  3.21853e-007  0.0000e+000  4.9981e+000
  3.22853e-007  0.0000e+000  4.9987e+000
  3.23853e-007  0.0000e+000  4.9992e+000
  3.24853e-007  0.0000e+000  4.9994e+000
  3.25853e-007  0.0000e+000  4.9996e+000
  3.26853e-007  0.0000e+000  4.9998e+000
  3.27853e-007  0.0000e+000  4.9998e+000
  3.28853e-007  0.0000e+000  4.9999e+000
  3.29853e-007  0.0000e+000  4.9999e+000
  3.30853e-007  0.0000e+000  4.9999e+000
  3.31853e-007  0.0000e+000  5.0000e+000
  3.32853e-007  0.0000e+000  5.0000e+000
  3.33853e-007  0.0000e+000  5.0000e+000
  3.34853e-007  0.0000e+000  5.0000e+000
  3.35853e-007  0.0000e+000  5.0000e+000
  3.36853e-007  0.0000e+000  5.0000e+000
  3.37853e-007  0.0000e+000  5.0000e+000
