* T-Spice 6.02 Simulation	Thu Dec 30 17:14:08 2021	D:\Materials\college\final year\Final-year-projects\Digital IC\labs\lab1\Simulation\transient_response.sp  (CAZM)
* Command line: tspice -o D:\Materials\college\final year\Final-year-projects\Digital IC\labs\lab1\Simulation\transient_response.out D:\Materials\college\final year\Final-year-projects\Digital IC\labs\lab1\Simulation\transient_response.sp 
* T-Spice Win32 6.02.20000302.11:47:10
* Operating System: Windows NT/95

*SEDIT: probesdbfile="D:\Materials\college\final year\Final-year-projects\Digital IC\labs\lab1\inverter_sch.sdb"
*SEDIT: probetopmodule="Module0"
*SEDIT: Alter blocks = 0

* Device and node counts:
*             MOSFETs - 2                 MOSFET geometries - 2       
*                BJTs - 0                             JFETs - 0       
*             MESFETs - 0                            Diodes - 0       
*          Capacitors - 0                         Resistors - 0       
*           Inductors - 0                  Mutual inductors - 0       
*  Transmission lines - 0        Coupled transmission lines - 0       
*     Voltage sources - 2                   Current sources - 0       
*                VCVS - 0                              VCCS - 0       
*                CCVS - 0                              CCCS - 0       
*    V-control switch - 0                  I-control switch - 0       
*       Macro devices - 0        Functional model instances - 0       
*         Subcircuits - 0              Subcircuit instances - 0       
*   Independent nodes - 1                    Boundary nodes - 3       
*         Total nodes - 4       


*SEDIT: Alter=0
*SEDIT: Analysis types DCOP 1 ACMODEL 1 AC 0 TRANSIENT 1 TRANSFER 0 NOISE 0 

* BEGIN NON-GRAPHICAL DATA

DC ANALYSIS
v(Out) =   5.0000e+000
v(Vdd) =   5.0000e+000
v(In) =   0.0000e+000
i(VPULSE) =  -0.0000e+000
i(VSupply) =   2.9850e-011

* END NON-GRAPHICAL DATA

* BEGIN NON-GRAPHICAL DATA

AC SMALL-SIGNAL MODELS
             M1           M2          
MODEL        nmos         pmos        
TYPE         NMOS         PMOS        
ID            7.06e-018    2.99e-011  
VGS           0.00e+000   -5.00e+000  
VDS           5.00e+000    7.20e-008  
VBS           0.00e+000    0.00e+000  
VTH           0.00e+000   -0.00e+000  
VDSAT         0.00e+000    0.00e+000  
RS            0.00e+000    0.00e+000  
RD            0.00e+000    0.00e+000  
GM            2.19e-015    5.97e-011  
GDS           3.37e-019    4.15e-004  
GMB          -1.03e-017    4.34e-011  
GBD           1.00e-014    2.99e-012  
GBS           1.00e-014    1.00e-014  
CGS          -8.16e-015    3.98e-014  
CGD           6.01e-015    3.24e-015  
CGB           4.24e-014    1.07e-014  
CBD           9.43e-015    3.43e-014  
CBS           3.32e-014    2.69e-014  

* END NON-GRAPHICAL DATA

*WEDIT: .tran   1e-005   0.0006
TRANSIENT ANALYSIS
Time<s>        v(In,GND)<V>  v(Out,GND)<V>
   0.0000e+000  0.0000e+000  5.0000e+000
   4.9725e-007  2.4863e-001  5.0000e+000
   1.0372e-006  5.1862e-001  5.0000e+000
   2.2169e-006  1.1085e+000  4.9569e+000
   2.8392e-006  1.4196e+000  4.7997e+000
   3.4113e-006  1.7057e+000  4.4786e+000
   3.7328e-006  1.8664e+000  4.1140e+000
   3.9130e-006  1.9565e+000  3.6524e+000
   3.9610e-006  1.9805e+000  3.2621e+000
   4.0055e-006  2.0028e+000  2.6809e+000
   4.0488e-006  2.0244e+000  2.1239e+000
  4.08670e-006  2.0434e+000  1.6703e+000
  4.12097e-006  2.0605e+000  1.2837e+000
   4.1643e-006  2.0822e+000  8.4344e-001
   4.2135e-006  2.1068e+000  6.7067e-001
  4.24009e-006  2.1200e+000  6.2282e-001
  4.26400e-006  2.1320e+000  5.8950e-001
   4.3410e-006  2.1705e+000  5.0634e-001
   4.5049e-006  2.2525e+000  3.9356e-001
   4.8120e-006  2.4060e+000  2.7044e-001
   5.1318e-006  2.5659e+000  1.9177e-001
   5.6070e-006  2.8035e+000  1.1584e-001
   6.3859e-006  3.1930e+000  4.5348e-002
   7.6792e-006  3.8396e+000  2.3359e-003
   9.4828e-006  4.7414e+000  5.8108e-006
   9.9990e-006  5.0000e+000  7.9604e-006
   1.0582e-005  5.0000e+000  4.2242e-010
   1.1126e-005  5.0000e+000 -9.6851e-011
   2.1126e-005  5.0000e+000 -9.6503e-009
   3.1126e-005  5.0000e+000 -1.9204e-008
   4.1126e-005  5.0000e+000 -2.8757e-008
   5.1126e-005  5.0000e+000 -3.8311e-008
   6.1126e-005  5.0000e+000 -4.7864e-008
   7.1126e-005  5.0000e+000 -5.7418e-008
   8.1126e-005  5.0000e+000 -6.6971e-008
   9.1126e-005  5.0000e+000 -7.6525e-008
   1.0112e-004  5.0000e+000 -8.6078e-008
   1.0999e-004  5.0000e+000 -9.4555e-008
  1.10204e-004  4.8976e+000 -7.8272e-006
  1.10776e-004  4.6119e+000 -8.3193e-006
   1.1312e-004  3.4397e+000  2.0895e-002
   1.1490e-004  2.5494e+000  1.9886e-001
  1.15658e-004  2.1706e+000  5.0589e-001
  1.15817e-004  2.0912e+000  7.5230e-001
 1.158600e-004  2.0700e+000  1.0483e+000
 1.158990e-004  2.0505e+000  1.4727e+000
 1.159497e-004  2.0251e+000  2.0750e+000
 1.159877e-004  2.0061e+000  2.5515e+000
 1.160246e-004  1.9877e+000  3.0340e+000
 1.160713e-004  1.9643e+000  3.5562e+000
 1.161191e-004  1.9404e+000  3.7812e+000
 1.161518e-004  1.9241e+000  3.8787e+000
 1.161814e-004  1.9093e+000  3.9535e+000
 1.162660e-004  1.8670e+000  4.1111e+000
  1.16473e-004  1.7634e+000  4.3698e+000
  1.16664e-004  1.6677e+000  4.5359e+000
  1.16928e-004  1.5358e+000  4.6979e+000
  1.17446e-004  1.2767e+000  4.8902e+000
  1.18103e-004  9.4830e-001  4.9892e+000
  1.18952e-004  5.2375e-001  5.0000e+000
  1.19899e-004  5.0141e-002  5.0000e+000
 1.199999e-004  0.0000e+000  5.0000e+000
  1.20505e-004  0.0000e+000  5.0000e+000
  1.21052e-004  0.0000e+000  5.0000e+000
   1.3105e-004  0.0000e+000  5.0000e+000
   1.4105e-004  0.0000e+000  5.0000e+000
   1.5008e-004  0.0000e+000  5.0000e+000
   1.5874e-004  0.0000e+000  5.0000e+000
   1.6874e-004  0.0000e+000  5.0000e+000
   1.7874e-004  0.0000e+000  5.0000e+000
   1.8874e-004  0.0000e+000  5.0000e+000
   1.9874e-004  0.0000e+000  5.0000e+000
  1.99999e-004  0.0000e+000  5.0000e+000
  2.00204e-004  1.0208e-001  5.0000e+000
  2.00750e-004  3.7544e-001  5.0000e+000
  2.02104e-004  1.0524e+000  4.9714e+000
  2.02767e-004  1.3836e+000  4.8268e+000
  2.03371e-004  1.6858e+000  4.5091e+000
  2.03713e-004  1.8568e+000  4.1429e+000
 2.039074e-004  1.9537e+000  3.6796e+000
 2.039574e-004  1.9787e+000  3.3085e+000
 2.040045e-004  2.0023e+000  2.6948e+000
 2.040450e-004  2.0225e+000  2.1705e+000
 2.040822e-004  2.0411e+000  1.7230e+000
 2.041159e-004  2.0580e+000  1.3384e+000
 2.041578e-004  2.0789e+000  8.9062e-001
 2.042045e-004  2.1023e+000  6.8844e-001
 2.042343e-004  2.1172e+000  6.3298e-001
 2.042601e-004  2.1301e+000  5.9427e-001
 2.043173e-004  2.1587e+000  5.2723e-001
  2.04530e-004  2.2655e+000  3.8027e-001
  2.04808e-004  2.4042e+000  2.7166e-001
  2.05085e-004  2.5426e+000  2.0198e-001
  2.05562e-004  2.7811e+000  1.2150e-001
  2.06180e-004  3.0903e+000  5.9406e-002
  2.06805e-004  3.4026e+000  2.3928e-002
  2.07378e-004  3.6894e+000  6.7481e-003
  2.08379e-004  4.1896e+000  1.4091e-005
  2.09529e-004  4.7646e+000  8.1632e-006
  2.09999e-004  5.0000e+000  7.8901e-006
  2.10507e-004  5.0000e+000  4.7795e-010
  2.11056e-004  5.0000e+000 -1.1850e-010
   2.2105e-004  5.0000e+000 -1.0995e-008
   2.3105e-004  5.0000e+000 -2.1872e-008
   2.4105e-004  5.0000e+000 -3.2748e-008
   2.5105e-004  5.0000e+000 -4.3625e-008
   2.6105e-004  5.0000e+000 -5.4501e-008
   2.7105e-004  5.0000e+000 -6.5378e-008
   2.8105e-004  5.0000e+000 -7.6254e-008
   2.9105e-004  5.0000e+000 -8.7131e-008
   3.0105e-004  5.0000e+000 -9.8007e-008
   3.0999e-004  5.0000e+000 -1.0774e-007
 3.102050e-004  4.8975e+000 -7.8273e-006
  3.10777e-004  4.6113e+000 -8.3204e-006
  3.13121e-004  3.4393e+000  2.0930e-002
  3.14901e-004  2.5492e+000  1.9897e-001
  3.15659e-004  2.1704e+000  5.0622e-001
 3.158178e-004  2.0911e+000  7.5310e-001
 3.158602e-004  2.0699e+000  1.0499e+000
 3.158990e-004  2.0505e+000  1.4732e+000
 3.159521e-004  2.0239e+000  2.1046e+000
 3.159909e-004  2.0045e+000  2.5923e+000
 3.160283e-004  1.9858e+000  3.0829e+000
 3.160766e-004  1.9617e+000  3.5914e+000
 3.161232e-004  1.9384e+000  3.7938e+000
 3.161624e-004  1.9188e+000  3.9058e+000
 3.161976e-004  1.9012e+000  3.9883e+000
 3.162909e-004  1.8545e+000  4.1482e+000
 3.165310e-004  1.7345e+000  4.4269e+000
 3.167488e-004  1.6256e+000  4.5948e+000
 3.170617e-004  1.4691e+000  4.7604e+000
  3.17567e-004  1.2162e+000  4.9188e+000
  3.18127e-004  9.3601e-001  4.9906e+000
  3.18682e-004  6.5858e-001  4.9999e+000
  3.19243e-004  3.7837e-001  5.0000e+000
  3.19952e-004  2.3836e-002  5.0000e+000
 3.199999e-004  0.0000e+000  5.0000e+000
  3.20504e-004  0.0000e+000  5.0000e+000
  3.21049e-004  0.0000e+000  5.0000e+000
   3.3104e-004  0.0000e+000  5.0000e+000
   3.4104e-004  0.0000e+000  5.0000e+000
   3.5006e-004  0.0000e+000  5.0000e+000
   3.5870e-004  0.0000e+000  5.0000e+000
   3.6870e-004  0.0000e+000  5.0000e+000
   3.7870e-004  0.0000e+000  5.0000e+000
   3.8870e-004  0.0000e+000  5.0000e+000
   3.9870e-004  0.0000e+000  5.0000e+000
  3.99999e-004  0.0000e+000  5.0000e+000
 4.002041e-004  1.0209e-001  5.0000e+000
  4.00750e-004  3.7549e-001  5.0000e+000
  4.02104e-004  1.0524e+000  4.9714e+000
  4.02767e-004  1.3836e+000  4.8268e+000
  4.03371e-004  1.6858e+000  4.5091e+000
 4.037134e-004  1.8567e+000  4.1429e+000
 4.039073e-004  1.9537e+000  3.6797e+000
 4.039573e-004  1.9787e+000  3.3086e+000
 4.040045e-004  2.0023e+000  2.6948e+000
 4.040450e-004  2.0225e+000  2.1706e+000
 4.0408220e-004  2.0411e+000  1.7231e+000
 4.0411594e-004  2.0580e+000  1.3386e+000
 4.041578e-004  2.0789e+000  8.9076e-001
 4.042045e-004  2.1023e+000  6.8848e-001
 4.0423437e-004  2.1172e+000  6.3300e-001
 4.0426015e-004  2.1301e+000  5.9427e-001
 4.043173e-004  2.1587e+000  5.2726e-001
 4.045309e-004  2.2655e+000  3.8026e-001
 4.048082e-004  2.4041e+000  2.7168e-001
 4.050850e-004  2.5425e+000  2.0199e-001
  4.05562e-004  2.7810e+000  1.2151e-001
  4.06180e-004  3.0902e+000  5.9413e-002
  4.06805e-004  3.4025e+000  2.3933e-002
  4.07378e-004  3.6894e+000  6.7504e-003
  4.08379e-004  4.1896e+000  1.4091e-005
  4.09529e-004  4.7646e+000  8.1630e-006
  4.09999e-004  5.0000e+000  7.8901e-006
  4.10507e-004  5.0000e+000  4.7795e-010
  4.11056e-004  5.0000e+000 -1.1850e-010
   4.2105e-004  5.0000e+000 -1.0995e-008
   4.3105e-004  5.0000e+000 -2.1871e-008
   4.4105e-004  5.0000e+000 -3.2748e-008
   4.5105e-004  5.0000e+000 -4.3624e-008
   4.6105e-004  5.0000e+000 -5.4501e-008
   4.7105e-004  5.0000e+000 -6.5377e-008
   4.8105e-004  5.0000e+000 -7.6254e-008
   4.9105e-004  5.0000e+000 -8.7130e-008
   5.0105e-004  5.0000e+000 -9.8007e-008
   5.0999e-004  5.0000e+000 -1.0773e-007
 5.102050e-004  4.8975e+000 -7.8273e-006
  5.10777e-004  4.6113e+000 -8.3204e-006
  5.13121e-004  3.4393e+000  2.0930e-002
  5.14901e-004  2.5492e+000  1.9897e-001
  5.15659e-004  2.1704e+000  5.0622e-001
 5.158178e-004  2.0911e+000  7.5310e-001
 5.1586022e-004  2.0699e+000  1.0499e+000
 5.1589908e-004  2.0505e+000  1.4732e+000
 5.159521e-004  2.0239e+000  2.1046e+000
 5.1599093e-004  2.0045e+000  2.5923e+000
 5.1602832e-004  1.9858e+000  3.0829e+000
 5.1607665e-004  1.9617e+000  3.5914e+000
 5.1612326e-004  1.9384e+000  3.7938e+000
 5.1616246e-004  1.9188e+000  3.9058e+000
 5.1619761e-004  1.9012e+000  3.9883e+000
 5.162909e-004  1.8545e+000  4.1482e+000
 5.165310e-004  1.7345e+000  4.4269e+000
 5.167488e-004  1.6256e+000  4.5948e+000
 5.170617e-004  1.4691e+000  4.7604e+000
 5.175675e-004  1.2162e+000  4.9188e+000
  5.18127e-004  9.3601e-001  4.9906e+000
  5.18682e-004  6.5859e-001  4.9999e+000
  5.19243e-004  3.7838e-001  5.0000e+000
  5.19952e-004  2.3851e-002  5.0000e+000
 5.2000000e-004  0.0000e+000  5.0000e+000
 5.205043e-004  0.0000e+000  5.0000e+000
  5.21049e-004  0.0000e+000  5.0000e+000
   5.3104e-004  0.0000e+000  5.0000e+000
   5.4104e-004  0.0000e+000  5.0000e+000
   5.5006e-004  0.0000e+000  5.0000e+000
   5.5870e-004  0.0000e+000  5.0000e+000
   5.6870e-004  0.0000e+000  5.0000e+000
   5.7870e-004  0.0000e+000  5.0000e+000
   5.8870e-004  0.0000e+000  5.0000e+000
   5.9870e-004  0.0000e+000  5.0000e+000
  6.00000e-004  0.0000e+000  5.0000e+000

* Parsing                      0.01 seconds
* Setup                        0.00 seconds
* DC operating point           0.01 seconds
* Transient Analysis           0.07 seconds
* -----------------------------------------
* Total                        0.09 seconds


* End of T-Spice output file
