* T-Spice 6.02 Simulation	Thu Dec 30 18:39:05 2021	D:\Materials\college\final year\Final-year-projects\Digital IC\labs\lab1\Simulation\transient_response_cap.sp  (CAZM)
* Command line: tspice -o D:\Materials\college\final year\Final-year-projects\Digital IC\labs\lab1\Simulation\transient_response_cap.out D:\Materials\college\final year\Final-year-projects\Digital IC\labs\lab1\Simulation\transient_response_cap.sp 
* T-Spice Win32 6.02.20000302.11:47:10
* Operating System: Windows NT/95

*SEDIT: probesdbfile="D:\Materials\college\final year\Final-year-projects\Digital IC\labs\lab1\Simulation\inverter_sch_cap.sdb"
*SEDIT: probetopmodule="Module0"
*SEDIT: Alter blocks = 0

* Device and node counts:
*             MOSFETs - 2                 MOSFET geometries - 2       
*                BJTs - 0                             JFETs - 0       
*             MESFETs - 0                            Diodes - 0       
*          Capacitors - 1                         Resistors - 0       
*           Inductors - 0                  Mutual inductors - 0       
*  Transmission lines - 0        Coupled transmission lines - 0       
*     Voltage sources - 2                   Current sources - 0       
*                VCVS - 0                              VCCS - 0       
*                CCVS - 0                              CCCS - 0       
*    V-control switch - 0                  I-control switch - 0       
*       Macro devices - 0        Functional model instances - 0       
*         Subcircuits - 0              Subcircuit instances - 0       
*   Independent nodes - 1                    Boundary nodes - 3       
*         Total nodes - 4       


*SEDIT: Alter=0
*SEDIT: Analysis types DCOP 1 ACMODEL 1 AC 0 TRANSIENT 1 TRANSFER 0 NOISE 0 

* BEGIN NON-GRAPHICAL DATA

DC ANALYSIS
v(Out) =   5.0000e+000
v(Vdd) =   5.0000e+000
v(In) =   0.0000e+000
i(VPulse) =  -0.0000e+000
i(VSupply) =  -5.0003e-014

* END NON-GRAPHICAL DATA

* BEGIN NON-GRAPHICAL DATA

AC SMALL-SIGNAL MODELS
             M1           M2          
MODEL        nmos         pmos        
TYPE         NMOS         PMOS        
ID            3.43e-018   -5.00e-014  
VGS           0.00e+000   -5.00e+000  
VDS           5.00e+000   -7.69e-011  
VBS           0.00e+000    0.00e+000  
VTH           0.00e+000   -0.00e+000  
VDSAT         0.00e+000    0.00e+000  
RS            0.00e+000    0.00e+000  
RD            0.00e+000    0.00e+000  
GM            1.07e-015   -1.00e-013  
GDS           1.64e-019    6.51e-004  
GMB          -5.00e-018    3.15e-015  
GBD           1.00e-014    1.00e-014  
GBS           1.00e-014    1.00e-014  
CGS          -3.97e-015    2.66e-014  
CGD           2.92e-015    6.24e-014  
CGB           2.09e-014   -4.93e-015  
CBD           9.26e-015    3.07e-014  
CBS           2.58e-014    3.02e-014  

* END NON-GRAPHICAL DATA

*WEDIT: .tran   1e-005   0.0006
TRANSIENT ANALYSIS
Time<s>        v(In,GND)<V>  v(Out,GND)<V>
   0.0000e+000  0.0000e+000  5.0000e+000
   3.6472e-007  1.8236e-001  5.0000e+000
   7.6638e-007  3.8319e-001  5.0000e+000
   1.7549e-006  8.7748e-001  4.9987e+000
   2.1165e-006  1.0583e+000  4.9908e+000
   2.4552e-006  1.2276e+000  4.9734e+000
   2.8964e-006  1.4482e+000  4.9336e+000
   3.3121e-006  1.6561e+000  4.8734e+000
   3.7409e-006  1.8705e+000  4.7799e+000
   4.1557e-006  2.0779e+000  4.6421e+000
   4.4071e-006  2.2036e+000  4.5167e+000
   4.5740e-006  2.2870e+000  4.4015e+000
   4.6878e-006  2.3439e+000  4.2941e+000
   4.7915e-006  2.3958e+000  4.1560e+000
  4.83100e-006  2.4155e+000  4.0823e+000
  4.86886e-006  2.4344e+000  3.9867e+000
  4.90369e-006  2.4518e+000  3.8583e+000
  4.92854e-006  2.4643e+000  3.7224e+000
  4.95183e-006  2.4759e+000  3.5449e+000
  4.97002e-006  2.4850e+000  3.3707e+000
  4.98643e-006  2.4932e+000  3.1928e+000
  5.00531e-006  2.5027e+000  2.9726e+000
  5.02537e-006  2.5127e+000  2.7289e+000
  5.04516e-006  2.5226e+000  2.4838e+000
  5.07557e-006  2.5378e+000  2.1050e+000
  5.10568e-006  2.5528e+000  1.7345e+000
  5.13551e-006  2.5678e+000  1.3808e+000
  5.15514e-006  2.5776e+000  1.1671e+000
  5.16783e-006  2.5839e+000  1.0510e+000
  5.17946e-006  2.5897e+000  9.7039e-001
  5.18969e-006  2.5948e+000  9.2159e-001
  5.19949e-006  2.5997e+000  8.8864e-001
  5.21039e-006  2.6052e+000  8.6016e-001
  5.22117e-006  2.6106e+000  8.3618e-001
  5.23200e-006  2.6160e+000  8.1442e-001
  5.24713e-006  2.6236e+000  7.8597e-001
  5.26356e-006  2.6318e+000  7.5902e-001
  5.27963e-006  2.6398e+000  7.3585e-001
  5.29430e-006  2.6472e+000  7.1531e-001
  5.31802e-006  2.6590e+000  6.8373e-001
  5.33902e-006  2.6695e+000  6.5904e-001
  5.36040e-006  2.6802e+000  6.3552e-001
  5.38280e-006  2.6914e+000  6.1104e-001
  5.40738e-006  2.7037e+000  5.8719e-001
  5.42757e-006  2.7138e+000  5.6930e-001
  5.44705e-006  2.7235e+000  5.5213e-001
  5.47471e-006  2.7374e+000  5.2788e-001
  5.50473e-006  2.7524e+000  5.0443e-001
  5.53581e-006  2.7679e+000  4.8247e-001
  5.56401e-006  2.7820e+000  4.6390e-001
  5.59421e-006  2.7971e+000  4.4469e-001
   5.6654e-006  2.8327e+000  4.0434e-001
  5.70960e-006  2.8548e+000  3.8133e-001
  5.74856e-006  2.8743e+000  3.6130e-001
  5.79645e-006  2.8982e+000  3.3836e-001
   5.8561e-006  2.9281e+000  3.1230e-001
  5.91410e-006  2.9571e+000  2.8938e-001
   5.9827e-006  2.9914e+000  2.6422e-001
   6.1130e-006  3.0565e+000  2.2256e-001
   6.2016e-006  3.1008e+000  1.9606e-001
   6.2844e-006  3.1422e+000  1.7406e-001
   6.3656e-006  3.1828e+000  1.5538e-001
   6.4558e-006  3.2279e+000  1.3656e-001
   6.5914e-006  3.2957e+000  1.1060e-001
   6.7178e-006  3.3589e+000  8.9307e-002
   6.9166e-006  3.4583e+000  6.2929e-002
   7.1095e-006  3.5548e+000  4.2685e-002
   7.3009e-006  3.6505e+000  2.6999e-002
   7.4743e-006  3.7372e+000  1.6328e-002
   7.7059e-006  3.8530e+000  6.7298e-003
   8.0747e-006  4.0374e+000  5.8148e-004
   8.6622e-006  4.3311e+000  1.5152e-005
   9.2123e-006  4.6062e+000  2.0834e-005
   9.5833e-006  4.7917e+000  1.2363e-005
   9.9606e-006  4.9803e+000  1.1379e-005
  9.99990e-006  5.0000e+000  1.1276e-005
   1.0193e-005  5.0000e+000  6.0405e-008
   1.0986e-005  5.0000e+000 -4.5584e-008
   2.0684e-005  5.0000e+000  5.8095e-007
   2.5864e-005  5.0000e+000 -4.3414e-007
   3.0810e-005  5.0000e+000 -5.3034e-010
   3.5457e-005  5.0000e+000  4.0678e-007
   4.5457e-005  5.0000e+000  8.7431e-011
   5.5457e-005  5.0000e+000 -4.0661e-007
   6.5457e-005  5.0000e+000  1.2237e-011
   7.5457e-005  5.0000e+000  4.0663e-007
   8.5457e-005  5.0000e+000  8.7415e-011
   9.5457e-005  5.0000e+000 -4.0646e-007
   1.0545e-004  5.0000e+000  1.2252e-011
   1.0999e-004  5.0000e+000  1.8466e-007
 1.100153e-004  4.9923e+000 -1.0797e-005
  1.10826e-004  4.5867e+000 -1.2973e-005
  1.11620e-004  4.1898e+000  3.0896e-006
  1.12180e-004  3.9097e+000  3.7137e-003
  1.12608e-004  3.6958e+000  2.0784e-002
  1.13002e-004  3.4988e+000  5.3732e-002
  1.13368e-004  3.3158e+000  1.0308e-001
  1.13790e-004  3.1050e+000  1.9235e-001
  1.14204e-004  2.8977e+000  3.3645e-001
  1.14449e-004  2.7750e+000  4.6838e-001
 1.145597e-004  2.7201e+000  5.5077e-001
 1.146628e-004  2.6686e+000  6.5022e-001
 1.147569e-004  2.6215e+000  7.7108e-001
 1.148114e-004  2.5943e+000  8.6686e-001
 1.148377e-004  2.5811e+000  9.3090e-001
 1.148621e-004  2.5689e+000  1.0063e+000
 1.148967e-004  2.5516e+000  1.1562e+000
 1.149299e-004  2.5350e+000  1.3747e+000
 1.149473e-004  2.5263e+000  1.5228e+000
 1.149632e-004  2.5184e+000  1.6745e+000
 1.149808e-004  2.5096e+000  1.8564e+000
 1.150040e-004  2.4980e+000  2.1091e+000
 1.150268e-004  2.4866e+000  2.3718e+000
 1.150626e-004  2.4687e+000  2.8023e+000
 1.150948e-004  2.4526e+000  3.2063e+000
 1.151280e-004  2.4360e+000  3.6310e+000
 1.1513915e-004  2.4304e+000  3.7674e+000
 1.1514969e-004  2.4252e+000  3.8800e+000
 1.1515910e-004  2.4204e+000  3.9591e+000
 1.1516872e-004  2.4156e+000  4.0160e+000
 1.1517825e-004  2.4109e+000  4.0544e+000
 1.1518860e-004  2.4057e+000  4.0846e+000
 1.1519833e-004  2.4008e+000  4.1083e+000
 1.1520840e-004  2.3958e+000  4.1304e+000
 1.152231e-004  2.3884e+000  4.1580e+000
 1.152352e-004  2.3824e+000  4.1775e+000
 1.1524669e-004  2.3767e+000  4.1950e+000
 1.152642e-004  2.3679e+000  4.2213e+000
 1.152813e-004  2.3593e+000  4.2443e+000
 1.152993e-004  2.3503e+000  4.2662e+000
 1.153161e-004  2.3419e+000  4.2862e+000
 1.153387e-004  2.3306e+000  4.3119e+000
 1.153611e-004  2.3194e+000  4.3345e+000
 1.153859e-004  2.3070e+000  4.3581e+000
 1.154115e-004  2.2942e+000  4.3821e+000
 1.154379e-004  2.2810e+000  4.4048e+000
 1.154683e-004  2.2658e+000  4.4287e+000
 1.154962e-004  2.2519e+000  4.4500e+000
 1.155377e-004  2.2311e+000  4.4799e+000
 1.155763e-004  2.2118e+000  4.5034e+000
 1.156116e-004  2.1942e+000  4.5235e+000
 1.156451e-004  2.1774e+000  4.5425e+000
 1.156795e-004  2.1602e+000  4.5616e+000
 1.157381e-004  2.1309e+000  4.5906e+000
 1.157894e-004  2.1053e+000  4.6145e+000
 1.158382e-004  2.0809e+000  4.6369e+000
 1.158852e-004  2.0574e+000  4.6570e+000
 1.159637e-004  2.0181e+000  4.6857e+000
 1.160395e-004  1.9802e+000  4.7119e+000
 1.160971e-004  1.9514e+000  4.7314e+000
 1.161508e-004  1.9246e+000  4.7483e+000
 1.162516e-004  1.8742e+000  4.7768e+000
 1.163458e-004  1.8271e+000  4.8003e+000
 1.164488e-004  1.7756e+000  4.8249e+000
  1.16583e-004  1.7084e+000  4.8534e+000
  1.16704e-004  1.6479e+000  4.8756e+000
 1.168132e-004  1.5934e+000  4.8937e+000
  1.16987e-004  1.5061e+000  4.9190e+000
  1.17177e-004  1.4110e+000  4.9412e+000
  1.17400e-004  1.2998e+000  4.9623e+000
  1.17664e-004  1.1677e+000  4.9805e+000
  1.17910e-004  1.0450e+000  4.9915e+000
  1.18180e-004  9.0959e-001  4.9979e+000
  1.18763e-004  6.1836e-001  5.0000e+000
  1.19208e-004  3.9560e-001  5.0000e+000
  1.19600e-004  1.9977e-001  5.0000e+000
  1.19999e-004  0.0000e+000  5.0000e+000
  1.20379e-004  0.0000e+000  5.0000e+000
  1.20790e-004  0.0000e+000  5.0000e+000
   1.2637e-004  0.0000e+000  5.0000e+000
   1.3030e-004  0.0000e+000  5.0000e+000
   1.3405e-004  0.0000e+000  5.0000e+000
   1.3736e-004  0.0000e+000  5.0000e+000
   1.4736e-004  0.0000e+000  5.0000e+000
   1.5736e-004  0.0000e+000  5.0000e+000
   1.6736e-004  0.0000e+000  5.0000e+000
   1.7736e-004  0.0000e+000  5.0000e+000
   1.8736e-004  0.0000e+000  5.0000e+000
   1.9736e-004  0.0000e+000  5.0000e+000
   1.9999e-004  0.0000e+000  5.0000e+000
 2.0001536e-004  7.6839e-003  5.0000e+000
  2.00456e-004  2.2827e-001  5.0000e+000
  2.01372e-004  6.8640e-001  5.0000e+000
  2.01952e-004  9.7603e-001  4.9955e+000
  2.02462e-004  1.2313e+000  4.9729e+000
  2.02834e-004  1.4170e+000  4.9404e+000
  2.03180e-004  1.5904e+000  4.8953e+000
  2.03710e-004  1.8554e+000  4.7875e+000
  2.04182e-004  2.0913e+000  4.6300e+000
 2.043745e-004  2.1873e+000  4.5353e+000
 2.045549e-004  2.2775e+000  4.4166e+000
 2.046771e-004  2.3386e+000  4.3058e+000
 2.047642e-004  2.3821e+000  4.1984e+000
 2.048233e-004  2.4117e+000  4.0986e+000
 2.048618e-004  2.4309e+000  4.0073e+000
 2.048960e-004  2.4480e+000  3.8907e+000
 2.049215e-004  2.4608e+000  3.7650e+000
 2.049466e-004  2.4733e+000  3.5891e+000
 2.0496608e-004  2.4830e+000  3.4112e+000
 2.0498351e-004  2.4918e+000  3.2260e+000
 2.0500047e-004  2.5002e+000  3.0304e+000
 2.050216e-004  2.5108e+000  2.7750e+000
 2.0504117e-004  2.5206e+000  2.5335e+000
 2.050666e-004  2.5333e+000  2.2162e+000
 2.050961e-004  2.5481e+000  1.8506e+000
 2.051254e-004  2.5627e+000  1.4984e+000
 2.051493e-004  2.5747e+000  1.2266e+000
 2.0516060e-004  2.5803e+000  1.1130e+000
 2.0517121e-004  2.5856e+000  1.0246e+000
 2.0518390e-004  2.5920e+000  9.4721e-001
 2.0519561e-004  2.5978e+000  9.0059e-001
 2.0520760e-004  2.6038e+000  8.6688e-001
 2.0521693e-004  2.6085e+000  8.4533e-001
 2.0522598e-004  2.6130e+000  8.2645e-001
 2.0523993e-004  2.6200e+000  7.9942e-001
 2.0525718e-004  2.6286e+000  7.6939e-001
 2.0527567e-004  2.6378e+000  7.4144e-001
 2.0529355e-004  2.6468e+000  7.1627e-001
 2.053152e-004  2.6576e+000  6.8732e-001
 2.053364e-004  2.6682e+000  6.6199e-001
 2.053635e-004  2.6818e+000  6.3206e-001
 2.053879e-004  2.6940e+000  6.0610e-001
 2.054129e-004  2.7065e+000  5.8226e-001
 2.054425e-004  2.7213e+000  5.5606e-001
 2.054687e-004  2.7344e+000  5.3321e-001
 2.054974e-004  2.7487e+000  5.0995e-001
 2.055295e-004  2.7648e+000  4.8659e-001
 2.055604e-004  2.7802e+000  4.6622e-001
 2.056057e-004  2.8029e+000  4.3754e-001
 2.056592e-004  2.8296e+000  4.0769e-001
 2.056955e-004  2.8478e+000  3.8865e-001
 2.057300e-004  2.8650e+000  3.7074e-001
 2.057750e-004  2.8875e+000  3.4803e-001
 2.058394e-004  2.9197e+000  3.1939e-001
 2.058999e-004  2.9500e+000  2.9477e-001
 2.059564e-004  2.9782e+000  2.7372e-001
 2.060101e-004  3.0051e+000  2.5506e-001
 2.060849e-004  3.0425e+000  2.3129e-001
 2.062079e-004  3.1040e+000  1.9424e-001
 2.062953e-004  3.1477e+000  1.7148e-001
 2.063743e-004  3.1872e+000  1.5345e-001
 2.064533e-004  3.2267e+000  1.3704e-001
 2.065942e-004  3.2971e+000  1.1013e-001
 2.067629e-004  3.3815e+000  8.2780e-002
 2.069093e-004  3.4547e+000  6.3746e-002
 2.070508e-004  3.5254e+000  4.8442e-002
  2.07282e-004  3.6414e+000  2.8305e-002
  2.07524e-004  3.7621e+000  1.3803e-002
  2.07816e-004  3.9084e+000  3.8556e-003
  2.08102e-004  4.0512e+000  4.4718e-004
  2.08525e-004  4.2626e+000  8.1590e-006
  2.09049e-004  4.5249e+000  1.2175e-005
  2.09514e-004  4.7574e+000  1.2109e-005
  2.09999e-004  5.0000e+000  1.1528e-005
  2.10714e-004  5.0000e+000  1.6804e-008
  2.11487e-004  5.0000e+000 -8.4085e-009
   2.2148e-004  5.0000e+000 -3.3466e-007
   2.2769e-004  5.0000e+000 -5.3727e-007
   2.3213e-004  5.0000e+000 -2.0589e-010
   2.3641e-004  5.0000e+000  4.5059e-011
   2.4641e-004  5.0000e+000  6.3043e-010
   2.5641e-004  5.0000e+000  1.2158e-009
   2.6641e-004  5.0000e+000  1.8012e-009
   2.7641e-004  5.0000e+000  2.3865e-009
   2.8641e-004  5.0000e+000  2.9719e-009
   2.9641e-004  5.0000e+000  3.5573e-009
   3.0641e-004  5.0000e+000  4.1426e-009
   3.0999e-004  5.0000e+000  4.3523e-009
 3.1001536e-004  4.9923e+000 -1.0808e-005
  3.10839e-004  4.5803e+000 -1.2981e-005
  3.11625e-004  4.1871e+000  4.1873e-006
  3.12178e-004  3.9105e+000  3.6799e-003
  3.12605e-004  3.6973e+000  2.0600e-002
  3.12999e-004  3.5002e+000  5.3444e-002
  3.13366e-004  3.3170e+000  1.0267e-001
  3.13786e-004  3.1065e+000  1.9146e-001
  3.14201e-004  2.8995e+000  3.3490e-001
 3.144482e-004  2.7759e+000  4.6731e-001
 3.145587e-004  2.7206e+000  5.4995e-001
 3.146625e-004  2.6687e+000  6.4985e-001
 3.147571e-004  2.6214e+000  7.7136e-001
 3.148116e-004  2.5942e+000  8.6712e-001
 3.1483779e-004  2.5811e+000  9.3096e-001
 3.1486202e-004  2.5690e+000  1.0060e+000
 3.148963e-004  2.5518e+000  1.1543e+000
 3.149295e-004  2.5352e+000  1.3715e+000
 3.1494490e-004  2.5275e+000  1.5011e+000
 3.1495984e-004  2.5201e+000  1.6416e+000
 3.1497647e-004  2.5118e+000  1.8102e+000
 3.1499954e-004  2.5002e+000  2.0593e+000
 3.1502198e-004  2.4890e+000  2.3146e+000
 3.150553e-004  2.4723e+000  2.7123e+000
 3.1508682e-004  2.4566e+000  3.1042e+000
 3.151191e-004  2.4404e+000  3.5176e+000
 3.1513793e-004  2.4310e+000  3.7519e+000
 3.1514851e-004  2.4257e+000  3.8675e+000
 3.1515777e-004  2.4211e+000  3.9489e+000
 3.1516731e-004  2.4163e+000  4.0089e+000
 3.1517690e-004  2.4115e+000  4.0498e+000
 3.1518595e-004  2.4070e+000  4.0777e+000
 3.1519509e-004  2.4025e+000  4.1008e+000
 3.1520488e-004  2.3976e+000  4.1232e+000
 3.1521859e-004  2.3907e+000  4.1501e+000
 3.1523200e-004  2.3840e+000  4.1723e+000
 3.1524371e-004  2.3781e+000  4.1904e+000
 3.1526201e-004  2.3690e+000  4.2182e+000
 3.1527980e-004  2.3601e+000  4.2424e+000
 3.1529703e-004  2.3515e+000  4.2634e+000
 3.1531287e-004  2.3436e+000  4.2822e+000
 3.1533507e-004  2.3325e+000  4.3080e+000
 3.1535714e-004  2.3214e+000  4.3307e+000
 3.1538063e-004  2.3097e+000  4.3531e+000
 3.1540305e-004  2.2985e+000  4.3742e+000
 3.1542828e-004  2.2859e+000  4.3969e+000
 3.1545693e-004  2.2715e+000  4.4199e+000
 3.1548802e-004  2.2560e+000  4.4437e+000
 3.155219e-004  2.2390e+000  4.4690e+000
 3.155541e-004  2.2229e+000  4.4900e+000
 3.155867e-004  2.2066e+000  4.5092e+000
 3.1561794e-004  2.1910e+000  4.5271e+000
 3.156599e-004  2.1700e+000  4.5508e+000
 3.157035e-004  2.1482e+000  4.5737e+000
 3.157568e-004  2.1216e+000  4.5993e+000
 3.158118e-004  2.0941e+000  4.6249e+000
 3.158761e-004  2.0619e+000  4.6535e+000
 3.159407e-004  2.0296e+000  4.6775e+000
 3.159932e-004  2.0034e+000  4.6959e+000
 3.160414e-004  1.9793e+000  4.7127e+000
 3.160914e-004  1.9543e+000  4.7296e+000
 3.162154e-004  1.8923e+000  4.7674e+000
 3.163312e-004  1.8344e+000  4.7968e+000
 3.164749e-004  1.7625e+000  4.8306e+000
 3.165621e-004  1.7189e+000  4.8494e+000
 3.166448e-004  1.6776e+000  4.8649e+000
 3.167721e-004  1.6139e+000  4.8871e+000
 3.168702e-004  1.5649e+000  4.9027e+000
 3.169649e-004  1.5175e+000  4.9161e+000
 3.170847e-004  1.4576e+000  4.9311e+000
 3.172554e-004  1.3723e+000  4.9494e+000
 3.174485e-004  1.2757e+000  4.9662e+000
 3.177441e-004  1.1279e+000  4.9847e+000
  3.18297e-004  8.5128e-001  4.9991e+000
  3.18820e-004  5.8984e-001  5.0000e+000
  3.19280e-004  3.5967e-001  5.0000e+000
  3.19673e-004  1.6317e-001  5.0000e+000
  3.19999e-004  0.0000e+000  5.0000e+000
  3.20378e-004  0.0000e+000  5.0000e+000
  3.20789e-004  0.0000e+000  5.0000e+000
   3.2636e-004  0.0000e+000  5.0000e+000
   3.3029e-004  0.0000e+000  5.0000e+000
   3.3403e-004  0.0000e+000  5.0000e+000
  3.37346e-004  0.0000e+000  5.0000e+000
   3.4734e-004  0.0000e+000  5.0000e+000
   3.5734e-004  0.0000e+000  5.0000e+000
   3.6734e-004  0.0000e+000  5.0000e+000
   3.7734e-004  0.0000e+000  5.0000e+000
   3.8734e-004  0.0000e+000  5.0000e+000
   3.9734e-004  0.0000e+000  5.0000e+000
  3.99999e-004  0.0000e+000  5.0000e+000
 4.0001536e-004  7.6839e-003  5.0000e+000
  4.00456e-004  2.2827e-001  5.0000e+000
  4.01372e-004  6.8640e-001  5.0000e+000
  4.01952e-004  9.7603e-001  4.9955e+000
  4.02462e-004  1.2313e+000  4.9729e+000
 4.028340e-004  1.4170e+000  4.9404e+000
 4.031807e-004  1.5904e+000  4.8953e+000
  4.03710e-004  1.8554e+000  4.7875e+000
  4.04182e-004  2.0913e+000  4.6300e+000
 4.043744e-004  2.1872e+000  4.5353e+000
 4.045547e-004  2.2774e+000  4.4167e+000
 4.046770e-004  2.3385e+000  4.3059e+000
 4.047642e-004  2.3821e+000  4.1985e+000
 4.048233e-004  2.4117e+000  4.0987e+000
 4.0486174e-004  2.4309e+000  4.0075e+000
 4.0489600e-004  2.4480e+000  3.8910e+000
 4.0492151e-004  2.4608e+000  3.7654e+000
 4.0494664e-004  2.4733e+000  3.5891e+000
 4.0496603e-004  2.4830e+000  3.4117e+000
 4.0498343e-004  2.4917e+000  3.2268e+000
 4.0500037e-004  2.5002e+000  3.0317e+000
 4.0502156e-004  2.5108e+000  2.7758e+000
 4.0504112e-004  2.5206e+000  2.5342e+000
 4.0506658e-004  2.5333e+000  2.2168e+000
 4.0509612e-004  2.5481e+000  1.8510e+000
 4.0512537e-004  2.5627e+000  1.4989e+000
 4.0514929e-004  2.5746e+000  1.2267e+000
 4.0516059e-004  2.5803e+000  1.1131e+000
 4.0517121e-004  2.5856e+000  1.0246e+000
 4.0518389e-004  2.5919e+000  9.4727e-001
 4.0519560e-004  2.5978e+000  9.0064e-001
 4.0520759e-004  2.6038e+000  8.6691e-001
 4.0521693e-004  2.6085e+000  8.4534e-001
 4.0522597e-004  2.6130e+000  8.2645e-001
 4.0523993e-004  2.6200e+000  7.9941e-001
 4.0525719e-004  2.6286e+000  7.6937e-001
 4.0527568e-004  2.6378e+000  7.4143e-001
 4.0529355e-004  2.6468e+000  7.1628e-001
 4.0531522e-004  2.6576e+000  6.8734e-001
 4.0533644e-004  2.6682e+000  6.6201e-001
 4.0536358e-004  2.6818e+000  6.3204e-001
 4.0538792e-004  2.6940e+000  6.0608e-001
 4.0541292e-004  2.7065e+000  5.8225e-001
 4.0544258e-004  2.7213e+000  5.5605e-001
 4.0546872e-004  2.7344e+000  5.3320e-001
 4.0549750e-004  2.7488e+000  5.0993e-001
 4.0552963e-004  2.7648e+000  4.8656e-001
 4.0556045e-004  2.7802e+000  4.6619e-001
 4.056056e-004  2.8028e+000  4.3759e-001
 4.056594e-004  2.8297e+000  4.0758e-001
 4.0569581e-004  2.8479e+000  3.8852e-001
 4.0573030e-004  2.8652e+000  3.7062e-001
 4.057753e-004  2.8877e+000  3.4790e-001
 4.058395e-004  2.9198e+000  3.1933e-001
